Time [s],Packet ID,Address,Data,Read/Write,ACK/NAK
1.158416080000000,0,0x22,0x01,Write,ACK
1.159363080000000,0,0x22,0x10,Write,ACK
1.160310080000000,0,0x22,0x05,Write,ACK
1.162432960000000,1,0x23,0x00,Read,NAK
1.165379720000000,2,0x23,0x00,Read,NAK
1.168326520000000,3,0x23,0x00,Read,NAK
1.171318600000000,4,0x23,0x00,Read,NAK
1.174265400000000,5,0x23,0x00,Read,NAK
1.177212120000000,6,0x23,0x00,Read,NAK
1.180204080000000,7,0x23,0x00,Read,NAK
1.183150720000000,8,0x23,0x00,Read,NAK
1.186097400000000,9,0x23,0x00,Read,NAK
1.189044040000000,10,0x23,0x80,Read,NAK
1.191181800000000,11,0x23,0x80,Read,NAK
1.505951040000000,12,0x23,0x80,Read,NAK
1.508045320000000,13,0x22,0x12,Write,ACK
1.508992360000000,13,0x22,0x00,Write,ACK
1.509939400000000,13,0x22,0x40,Write,ACK
1.510931720000000,13,0x22,0x01,Write,ACK
1.511878720000000,13,0x22,0x00,Write,ACK
1.512825720000000,13,0x22,0x03,Write,ACK
1.514948560000000,14,0x23,0x80,Read,NAK
1.517059560000000,15,0x23,0x80,Read,NAK
1.519153600000000,16,0x22,0x12,Write,ACK
1.520100560000000,16,0x22,0x00,Write,ACK
1.521047520000000,16,0x22,0x14,Write,ACK
1.522039600000000,16,0x22,0x02,Write,ACK
1.522986520000000,16,0x22,0x00,Write,ACK
1.523933440000000,16,0x22,0x0A,Write,ACK
1.526056200000000,17,0x23,0x80,Read,NAK
1.528166760000000,18,0x23,0x80,Read,NAK
1.530260800000000,19,0x22,0x12,Write,ACK
1.531207760000000,19,0x22,0x00,Write,ACK
1.532154720000000,19,0x22,0x11,Write,ACK
1.533147000000000,19,0x22,0x00,Write,ACK
1.534094000000000,19,0x22,0x00,Write,ACK
1.535040960000000,19,0x22,0x02,Write,ACK
1.537163680000000,20,0x23,0x80,Read,NAK
1.539274880000000,21,0x23,0x80,Read,NAK
1.541368960000000,22,0x22,0x12,Write,ACK
1.542315920000000,22,0x22,0x00,Write,ACK
1.543262840000000,22,0x22,0x14,Write,ACK
1.544255080000000,22,0x22,0x00,Write,ACK
1.545202040000000,22,0x22,0x22,Write,ACK
1.546148960000000,22,0x22,0x2E,Write,ACK
1.548271640000000,23,0x23,0x80,Read,NAK
1.550382800000000,24,0x23,0x80,Read,NAK
1.552490840000000,25,0x22,0x12,Write,ACK
1.553423840000000,25,0x22,0x00,Write,ACK
1.554370800000000,25,0x22,0x14,Write,ACK
1.555362880000000,25,0x22,0x01,Write,ACK
1.556309880000000,25,0x22,0x2A,Write,ACK
1.557256840000000,25,0x22,0x26,Write,ACK
1.559379600000000,26,0x23,0x80,Read,NAK
1.561505960000000,27,0x23,0x80,Read,NAK
1.563600080000000,28,0x22,0x12,Write,ACK
1.564547040000000,28,0x22,0x00,Write,ACK
1.565539320000000,28,0x22,0x02,Write,ACK
1.566486200000000,28,0x22,0x01,Write,ACK
1.567419200000000,28,0x22,0x80,Write,ACK
1.568366120000000,28,0x22,0x00,Write,ACK
1.570502760000000,29,0x23,0x80,Read,NAK
1.572612400000000,30,0x23,0x80,Read,NAK
1.574706480000000,31,0x22,0x12,Write,ACK
1.575653440000000,31,0x22,0x00,Write,ACK
1.576645720000000,31,0x22,0x02,Write,ACK
1.577592680000000,31,0x22,0x02,Write,ACK
1.578539680000000,31,0x22,0x00,Write,ACK
1.579472720000000,31,0x22,0x01,Write,ACK
1.581609400000000,32,0x23,0x80,Read,NAK
1.583720080000000,33,0x23,0x80,Read,NAK
1.585814200000000,34,0x22,0x12,Write,ACK
1.586761160000000,34,0x22,0x00,Write,ACK
1.587753240000000,34,0x22,0x13,Write,ACK
1.588700240000000,34,0x22,0x00,Write,ACK
1.589647160000000,34,0x22,0x00,Write,ACK
1.590594120000000,34,0x22,0x40,Write,ACK
1.592716800000000,35,0x23,0x80,Read,NAK
1.594827440000000,36,0x23,0x80,Read,NAK
1.596921520000000,37,0x22,0x12,Write,ACK
1.597868440000000,37,0x22,0x00,Write,ACK
1.598860680000000,37,0x22,0x13,Write,ACK
1.599807640000000,37,0x22,0x03,Write,ACK
1.600754600000000,37,0x22,0x00,Write,ACK
1.601701560000000,37,0x22,0x04,Write,ACK
1.603824280000000,38,0x23,0x80,Read,NAK
1.605934880000000,39,0x23,0x80,Read,NAK
1.608029040000000,40,0x22,0x12,Write,ACK
1.608976040000000,40,0x22,0x00,Write,ACK
1.609968320000000,40,0x22,0x13,Write,ACK
1.610915280000000,40,0x22,0x02,Write,ACK
1.611862240000000,40,0x22,0x00,Write,ACK
1.612809280000000,40,0x22,0x10,Write,ACK
1.614932160000000,41,0x23,0x80,Read,NAK
1.617042880000000,42,0x23,0x80,Read,NAK
1.619137000000000,43,0x22,0x12,Write,ACK
1.620083960000000,43,0x22,0x00,Write,ACK
1.621076080000000,43,0x22,0x18,Write,ACK
1.622023080000000,43,0x22,0x00,Write,ACK
1.622970040000000,43,0x22,0x00,Write,ACK
1.623917000000000,43,0x22,0x31,Write,ACK
1.626039760000000,44,0x23,0x80,Read,NAK
1.628150400000000,45,0x23,0x80,Read,NAK
1.630244560000000,46,0x22,0x12,Write,ACK
1.631191520000000,46,0x22,0x00,Write,ACK
1.632183840000000,46,0x22,0x18,Write,ACK
1.633130840000000,46,0x22,0x01,Write,ACK
1.634077840000000,46,0x22,0x00,Write,ACK
1.635024800000000,46,0x22,0x1E,Write,ACK
1.637147640000000,47,0x23,0x80,Read,NAK
1.639256160000000,48,0x23,0x80,Read,NAK
1.641350320000000,49,0x22,0x28,Write,ACK
1.642297320000000,49,0x22,0x00,Write,ACK
1.643289640000000,49,0x22,0x00,Write,ACK
1.645412400000000,50,0x23,0x80,Read,NAK
1.647505160000000,51,0x23,0x80,Read,NAK
1.649612320000000,52,0x23,0x80,Read,NAK
1.651720400000000,53,0x22,0x12,Write,ACK
1.652667360000000,53,0x22,0x00,Write,ACK
1.653600360000000,53,0x22,0x15,Write,ACK
1.654592440000000,53,0x22,0x02,Write,ACK
1.655539360000000,53,0x22,0xAA,Write,ACK
1.656486320000000,53,0x22,0x01,Write,ACK
1.658609080000000,54,0x23,0x80,Read,NAK
1.660732600000000,55,0x23,0x80,Read,NAK
1.662826800000000,56,0x22,0x12,Write,ACK
1.663773800000000,56,0x22,0x00,Write,ACK
1.664766160000000,56,0x22,0x15,Write,ACK
1.665713160000000,56,0x22,0x00,Write,ACK
1.666646320000000,56,0x22,0x00,Write,ACK
1.667593320000000,56,0x22,0x01,Write,ACK
1.669730120000000,57,0x23,0x80,Read,NAK
1.671839880000000,58,0x23,0x80,Read,NAK
1.673934160000000,59,0x22,0x12,Write,ACK
1.674881160000000,59,0x22,0x00,Write,ACK
1.675873520000000,59,0x22,0x00,Write,ACK
1.676820520000000,59,0x22,0x01,Write,ACK
1.677767480000000,59,0x22,0x00,Write,ACK
1.678700520000000,59,0x22,0x05,Write,ACK
1.680837200000000,60,0x23,0x80,Read,NAK
1.682946880000000,61,0x23,0x80,Read,NAK
1.685041120000000,62,0x22,0x12,Write,ACK
1.685988160000000,62,0x22,0x00,Write,ACK
1.686980280000000,62,0x22,0x15,Write,ACK
1.687927280000000,62,0x22,0x01,Write,ACK
1.688874280000000,62,0x22,0x00,Write,ACK
1.689821240000000,62,0x22,0x01,Write,ACK
1.691944160000000,63,0x23,0x80,Read,NAK
1.694054920000000,64,0x23,0x80,Read,NAK
1.696149120000000,65,0x22,0x12,Write,ACK
1.697096120000000,65,0x22,0x00,Write,ACK
1.698088480000000,65,0x22,0x14,Write,ACK
1.699035440000000,65,0x22,0x03,Write,ACK
1.699982480000000,65,0x22,0x00,Write,ACK
1.700929480000000,65,0x22,0x03,Write,ACK
1.703052320000000,66,0x23,0x80,Read,NAK
1.705161560000000,67,0x23,0x80,Read,NAK
1.707255800000000,68,0x22,0x12,Write,ACK
1.708202760000000,68,0x22,0x00,Write,ACK
1.709195040000000,68,0x22,0xFF,Write,ACK
1.710142040000000,68,0x22,0x00,Write,ACK
1.711089040000000,68,0x22,0x00,Write,ACK
1.712036080000000,68,0x22,0x00,Write,ACK
1.714158920000000,69,0x23,0x80,Read,NAK
1.716268360000000,70,0x23,0x80,Read,NAK
1.718362520000000,71,0x22,0x12,Write,ACK
1.719309520000000,71,0x22,0x00,Write,ACK
1.720301640000000,71,0x22,0x14,Write,ACK
1.721248640000000,71,0x22,0x04,Write,ACK
1.722195640000000,71,0x22,0x00,Write,ACK
1.723142640000000,71,0x22,0x00,Write,ACK
1.725294160000000,72,0x23,0x80,Read,NAK
1.727413400000000,73,0x23,0x80,Read,NAK
1.729507640000000,74,0x22,0x20,Write,ACK
1.730454640000000,74,0x22,0x00,Write,ACK
1.731447000000000,74,0x22,0x23,Write,ACK
1.732393960000000,74,0x22,0x5A,Write,ACK
1.733340960000000,74,0x22,0x00,Write,ACK
1.735463800000000,75,0x23,0x80,Read,NAK
1.737556600000000,76,0x23,0x80,Read,NAK
1.739657480000000,77,0x23,0x80,Read,NAK
1.741751840000000,78,0x22,0x14,Write,ACK
1.743933960000000,79,0x23,0x80,Read,NAK
1.746026760000000,80,0x23,0x80,Read,NAK
1.749541240000000,81,0x23,0x80,Read,NAK
1.751635440000000,82,0x22,0x14,Write,ACK
1.753803440000000,83,0x23,0x80,Read,NAK
1.755910200000000,84,0x23,0x80,Read,NAK
1.759424800000000,85,0x23,0x80,Read,NAK
1.761518960000000,86,0x22,0x14,Write,ACK
1.763641760000000,87,0x23,0x80,Read,NAK
1.765779880000000,88,0x23,0x80,Read,NAK
1.769308440000000,89,0x23,0x80,Read,NAK
1.771402680000000,90,0x22,0x14,Write,ACK
1.773525600000000,91,0x23,0x80,Read,NAK
1.775663800000000,92,0x23,0x80,Read,NAK
1.779192240000000,93,0x23,0x80,Read,NAK
1.781286520000000,94,0x22,0x14,Write,ACK
1.783409360000000,95,0x23,0x81,Read,NAK
1.785502080000000,96,0x23,0x81,Read,NAK
1.787657720000000,97,0x23,0x81,Read,NAK
1.789751920000000,98,0x22,0x22,Write,ACK
1.790698920000000,98,0x22,0x01,Write,ACK
1.792821640000000,99,0x23,0x80,Read,NAK
1.794914360000000,100,0x23,0x80,Read,ACK
1.795828960000000,100,0x23,0x01,Read,ACK
1.796743480000000,100,0x23,0x23,Read,ACK
1.797703360000000,100,0x23,0x5A,Read,ACK
1.798617880000000,100,0x23,0x3A,Read,ACK
1.799532440000000,100,0x23,0x15,Read,ACK
1.800447000000000,100,0x23,0x00,Read,ACK
1.801361520000000,100,0x23,0x01,Read,NAK
1.803470240000000,101,0x23,0x80,Read,NAK
1.805564440000000,102,0x22,0x14,Write,ACK
1.807687240000000,103,0x23,0x80,Read,NAK
1.809825440000000,104,0x23,0x80,Read,NAK
1.819214920000000,105,0x23,0x80,Read,NAK
1.821309120000000,106,0x22,0x12,Write,ACK
1.822256080000000,106,0x22,0x00,Write,ACK
1.823203040000000,106,0x22,0x14,Write,ACK
1.824150000000000,106,0x22,0x04,Write,ACK
1.825097000000000,106,0x22,0x00,Write,ACK
1.826043960000000,106,0x22,0x14,Write,ACK
1.828166720000000,107,0x23,0x80,Read,NAK
1.830324960000000,108,0x23,0x80,Read,NAK
1.832419160000000,109,0x22,0x12,Write,ACK
1.833366160000000,109,0x22,0x00,Write,ACK
1.834313120000000,109,0x22,0x40,Write,ACK
1.835260080000000,109,0x22,0x00,Write,ACK
1.836207040000000,109,0x22,0x00,Write,ACK
1.837154040000000,109,0x22,0x00,Write,ACK
1.839276880000000,110,0x23,0x80,Read,NAK
1.841431680000000,111,0x23,0x80,Read,NAK
1.843525800000000,112,0x22,0x12,Write,ACK
1.844472800000000,112,0x22,0x00,Write,ACK
1.845419760000000,112,0x22,0x40,Write,ACK
1.846366760000000,112,0x22,0x01,Write,ACK
1.847313720000000,112,0x22,0x00,Write,ACK
1.848260640000000,112,0x22,0x00,Write,ACK
1.850383360000000,113,0x23,0x80,Read,NAK
1.852543120000000,114,0x23,0x80,Read,NAK
1.854637280000000,115,0x22,0x12,Write,ACK
1.855584240000000,115,0x22,0x00,Write,ACK
1.856531120000000,115,0x22,0x40,Write,ACK
1.857478080000000,115,0x22,0x00,Write,ACK
1.858425000000000,115,0x22,0x00,Write,ACK
1.859371960000000,115,0x22,0x01,Write,ACK
1.861494640000000,116,0x23,0x80,Read,NAK
1.863654960000000,117,0x23,0x80,Read,NAK
1.865749160000000,118,0x22,0x12,Write,ACK
1.866696120000000,118,0x22,0x00,Write,ACK
1.867643120000000,118,0x22,0x40,Write,ACK
1.868590120000000,118,0x22,0x00,Write,ACK
1.869537080000000,118,0x22,0x00,Write,ACK
1.870484040000000,118,0x22,0x02,Write,ACK
1.872606800000000,119,0x23,0x80,Read,NAK
1.874767120000000,120,0x23,0x80,Read,NAK
1.876861320000000,121,0x22,0x12,Write,ACK
1.877808240000000,121,0x22,0x00,Write,ACK
1.878755200000000,121,0x22,0x40,Write,ACK
1.879702160000000,121,0x22,0x00,Write,ACK
1.880649160000000,121,0x22,0x00,Write,ACK
1.881596120000000,121,0x22,0x03,Write,ACK
1.883718880000000,122,0x23,0x80,Read,NAK
1.885879000000000,123,0x23,0x80,Read,NAK
1.887973120000000,124,0x22,0x12,Write,ACK
1.888920040000000,124,0x22,0x00,Write,ACK
1.889867000000000,124,0x22,0x40,Write,ACK
1.890813960000000,124,0x22,0x00,Write,ACK
1.891760960000000,124,0x22,0x00,Write,ACK
1.892707960000000,124,0x22,0x04,Write,ACK
1.894830760000000,125,0x23,0x80,Read,NAK
1.896991160000000,126,0x23,0x80,Read,NAK
1.899085280000000,127,0x22,0x12,Write,ACK
1.900032240000000,127,0x22,0x00,Write,ACK
1.900979200000000,127,0x22,0x40,Write,ACK
1.901926160000000,127,0x22,0x00,Write,ACK
1.902873120000000,127,0x22,0x00,Write,ACK
1.903820080000000,127,0x22,0x05,Write,ACK
1.905942840000000,128,0x23,0x80,Read,NAK
1.908103120000000,129,0x23,0x80,Read,NAK
1.910211200000000,130,0x22,0x12,Write,ACK
1.911144280000000,130,0x22,0x00,Write,ACK
1.912091280000000,130,0x22,0x40,Write,ACK
1.913038320000000,130,0x22,0x00,Write,ACK
1.913985280000000,130,0x22,0x00,Write,ACK
1.914932280000000,130,0x22,0x06,Write,ACK
1.917055080000000,131,0x23,0x80,Read,NAK
1.919229160000000,132,0x23,0x80,Read,NAK
1.921323280000000,133,0x22,0x12,Write,ACK
1.922270280000000,133,0x22,0x00,Write,ACK
1.923217280000000,133,0x22,0x40,Write,ACK
1.924150360000000,133,0x22,0x00,Write,ACK
1.925097400000000,133,0x22,0x00,Write,ACK
1.926044360000000,133,0x22,0x07,Write,ACK
1.928167200000000,134,0x23,0x80,Read,NAK
1.930341520000000,135,0x23,0x80,Read,NAK
1.932435720000000,136,0x22,0x12,Write,ACK
1.933382760000000,136,0x22,0x00,Write,ACK
1.934329720000000,136,0x22,0x40,Write,ACK
1.935276720000000,136,0x22,0x00,Write,ACK
1.936209760000000,136,0x22,0x00,Write,ACK
1.937156760000000,136,0x22,0x08,Write,ACK
1.939293480000000,137,0x23,0x80,Read,NAK
1.941453880000000,138,0x23,0x80,Read,NAK
1.943548080000000,139,0x22,0x12,Write,ACK
1.944495080000000,139,0x22,0x00,Write,ACK
1.945442040000000,139,0x22,0x40,Write,ACK
1.946389040000000,139,0x22,0x00,Write,ACK
1.947336040000000,139,0x22,0x00,Write,ACK
1.948283040000000,139,0x22,0x09,Write,ACK
1.950405800000000,140,0x23,0x80,Read,NAK
1.952566000000000,141,0x23,0x80,Read,NAK
1.954660160000000,142,0x22,0x12,Write,ACK
1.955607120000000,142,0x22,0x00,Write,ACK
1.956554160000000,142,0x22,0x40,Write,ACK
1.957501120000000,142,0x22,0x00,Write,ACK
1.958448080000000,142,0x22,0x00,Write,ACK
1.959395040000000,142,0x22,0x0A,Write,ACK
1.961517800000000,143,0x23,0x80,Read,NAK
1.963678160000000,144,0x23,0x80,Read,NAK
1.965772320000000,145,0x22,0x12,Write,ACK
1.966719320000000,145,0x22,0x00,Write,ACK
1.967666280000000,145,0x22,0x40,Write,ACK
1.968613320000000,145,0x22,0x00,Write,ACK
1.969560240000000,145,0x22,0x00,Write,ACK
1.970507240000000,145,0x22,0x0B,Write,ACK
1.972630040000000,146,0x23,0x84,Read,NAK
1.974790440000000,147,0x23,0x84,Read,NAK
1.976918640000000,148,0x22,0x12,Write,ACK
1.977865640000000,148,0x22,0x00,Write,ACK
1.978812600000000,148,0x22,0x40,Write,ACK
1.979759600000000,148,0x22,0x00,Write,ACK
1.980706640000000,148,0x22,0x00,Write,ACK
1.981653640000000,148,0x22,0x0C,Write,ACK
1.983776440000000,149,0x23,0x84,Read,NAK
1.985936680000000,150,0x23,0x84,Read,NAK
1.988030800000000,151,0x22,0x12,Write,ACK
1.988977760000000,151,0x22,0x00,Write,ACK
1.989924720000000,151,0x22,0x40,Write,ACK
1.990871720000000,151,0x22,0x00,Write,ACK
1.991818720000000,151,0x22,0x00,Write,ACK
1.992765720000000,151,0x22,0x0D,Write,ACK
1.994888520000000,152,0x23,0x84,Read,NAK
1.997048920000000,153,0x23,0x84,Read,NAK
1.999143040000000,154,0x22,0x12,Write,ACK
2.000090040000000,154,0x22,0x00,Write,ACK
2.001037000000000,154,0x22,0x40,Write,ACK
2.001983960000000,154,0x22,0x00,Write,ACK
2.002930920000000,154,0x22,0x00,Write,ACK
2.003877880000000,154,0x22,0x0E,Write,ACK
2.006000520000000,155,0x23,0x84,Read,NAK
2.008160880000000,156,0x23,0x84,Read,NAK
2.010254880000000,157,0x22,0x12,Write,ACK
2.011201840000000,157,0x22,0x00,Write,ACK
2.012148800000000,157,0x22,0x40,Write,ACK
2.013095800000000,157,0x22,0x00,Write,ACK
2.014042760000000,157,0x22,0x00,Write,ACK
2.014989760000000,157,0x22,0x0F,Write,ACK
2.017112520000000,158,0x23,0x84,Read,NAK
2.019272640000000,159,0x23,0x84,Read,NAK
2.021366800000000,160,0x22,0x12,Write,ACK
2.022313760000000,160,0x22,0x00,Write,ACK
2.023260720000000,160,0x22,0x40,Write,ACK
2.024207680000000,160,0x22,0x00,Write,ACK
2.025154600000000,160,0x22,0x00,Write,ACK
2.026101560000000,160,0x22,0x10,Write,ACK
2.028224240000000,161,0x23,0x84,Read,NAK
2.030384480000000,162,0x23,0x84,Read,NAK
2.032492520000000,163,0x22,0x12,Write,ACK
2.033425520000000,163,0x22,0x00,Write,ACK
2.034372520000000,163,0x22,0x40,Write,ACK
2.035319480000000,163,0x22,0x00,Write,ACK
2.036266440000000,163,0x22,0x00,Write,ACK
2.037213400000000,163,0x22,0x11,Write,ACK
2.039336120000000,164,0x23,0x84,Read,NAK
2.041510280000000,165,0x23,0x84,Read,NAK
2.043604440000000,166,0x22,0x12,Write,ACK
2.044551400000000,166,0x22,0x00,Write,ACK
2.045498360000000,166,0x22,0x40,Write,ACK
2.046431400000000,166,0x22,0x00,Write,ACK
2.047378320000000,166,0x22,0x00,Write,ACK
2.048325240000000,166,0x22,0x12,Write,ACK
2.050447840000000,167,0x23,0x84,Read,NAK
2.052621680000000,168,0x23,0x84,Read,NAK
2.054715720000000,169,0x22,0x12,Write,ACK
2.055662640000000,169,0x22,0x00,Write,ACK
2.056609560000000,169,0x22,0x40,Write,ACK
2.057556520000000,169,0x22,0x00,Write,ACK
2.058503440000000,169,0x22,0x00,Write,ACK
2.059436480000000,169,0x22,0x13,Write,ACK
2.061618440000000,170,0x23,0x84,Read,NAK
2.063733320000000,171,0x23,0x84,Read,NAK
2.065827360000000,172,0x22,0x12,Write,ACK
2.066774320000000,172,0x22,0x00,Write,ACK
2.067721280000000,172,0x22,0x40,Write,ACK
2.068668240000000,172,0x22,0x00,Write,ACK
2.069615200000000,172,0x22,0x00,Write,ACK
2.070562120000000,172,0x22,0x14,Write,ACK
2.072730240000000,173,0x23,0x84,Read,NAK
2.074845120000000,174,0x23,0x84,Read,NAK
2.076939160000000,175,0x22,0x12,Write,ACK
2.077886120000000,175,0x22,0x00,Write,ACK
2.078833040000000,175,0x22,0x40,Write,ACK
2.079780000000000,175,0x22,0x00,Write,ACK
2.080726920000000,175,0x22,0x00,Write,ACK
2.081673840000000,175,0x22,0x15,Write,ACK
2.083841640000000,176,0x23,0x84,Read,NAK
2.085956560000000,177,0x23,0x84,Read,NAK
2.088050600000000,178,0x22,0x12,Write,ACK
2.088997560000000,178,0x22,0x00,Write,ACK
2.089944480000000,178,0x22,0x40,Write,ACK
2.090891440000000,178,0x22,0x00,Write,ACK
2.091838360000000,178,0x22,0x00,Write,ACK
2.092785240000000,178,0x22,0x16,Write,ACK
2.094953280000000,179,0x23,0x84,Read,NAK
2.097068240000000,180,0x23,0x84,Read,NAK
2.099162360000000,181,0x22,0x12,Write,ACK
2.100109360000000,181,0x22,0x00,Write,ACK
2.101056320000000,181,0x22,0x40,Write,ACK
2.102003280000000,181,0x22,0x00,Write,ACK
2.102950280000000,181,0x22,0x00,Write,ACK
2.103897200000000,181,0x22,0x17,Write,ACK
2.106065240000000,182,0x23,0x84,Read,NAK
2.108180280000000,183,0x23,0x84,Read,NAK
2.110274440000000,184,0x22,0x12,Write,ACK
2.111221400000000,184,0x22,0x00,Write,ACK
2.112168400000000,184,0x22,0x40,Write,ACK
2.113115360000000,184,0x22,0x00,Write,ACK
2.114062320000000,184,0x22,0x00,Write,ACK
2.115009280000000,184,0x22,0x18,Write,ACK
2.117177280000000,185,0x23,0x84,Read,NAK
2.119292280000000,186,0x23,0x84,Read,NAK
2.121386400000000,187,0x22,0x12,Write,ACK
2.122333360000000,187,0x22,0x00,Write,ACK
2.123280320000000,187,0x22,0x40,Write,ACK
2.124227280000000,187,0x22,0x00,Write,ACK
2.125174200000000,187,0x22,0x00,Write,ACK
2.126121160000000,187,0x22,0x19,Write,ACK
2.128289120000000,188,0x23,0x84,Read,NAK
2.130404080000000,189,0x23,0x84,Read,NAK
2.132498160000000,190,0x22,0x12,Write,ACK
2.133445040000000,190,0x22,0x00,Write,ACK
2.134391920000000,190,0x22,0x40,Write,ACK
2.135338880000000,190,0x22,0x00,Write,ACK
2.136285800000000,190,0x22,0x00,Write,ACK
2.137232800000000,190,0x22,0x1A,Write,ACK
2.139400760000000,191,0x23,0x84,Read,NAK
2.141515760000000,192,0x23,0x84,Read,NAK
2.143609840000000,193,0x22,0x12,Write,ACK
2.144556760000000,193,0x22,0x00,Write,ACK
2.145503680000000,193,0x22,0x40,Write,ACK
2.146450600000000,193,0x22,0x00,Write,ACK
2.147397520000000,193,0x22,0x00,Write,ACK
2.148344400000000,193,0x22,0x1B,Write,ACK
2.150512200000000,194,0x23,0x84,Read,NAK
2.152627160000000,195,0x23,0x84,Read,NAK
2.154735160000000,196,0x22,0x12,Write,ACK
2.155668200000000,196,0x22,0x00,Write,ACK
2.156615120000000,196,0x22,0x40,Write,ACK
2.157562080000000,196,0x22,0x00,Write,ACK
2.158508960000000,196,0x22,0x00,Write,ACK
2.159455920000000,196,0x22,0x1C,Write,ACK
2.161624000000000,197,0x23,0x84,Read,NAK
2.163752880000000,198,0x23,0x84,Read,NAK
2.165847000000000,199,0x22,0x12,Write,ACK
2.166793960000000,199,0x22,0x00,Write,ACK
2.167740880000000,199,0x22,0x40,Write,ACK
2.168673880000000,199,0x22,0x00,Write,ACK
2.169620800000000,199,0x22,0x00,Write,ACK
2.170567720000000,199,0x22,0x1D,Write,ACK
2.172749720000000,200,0x23,0x84,Read,NAK
2.174864760000000,201,0x23,0x84,Read,NAK
2.176958920000000,202,0x22,0x12,Write,ACK
2.177905840000000,202,0x22,0x00,Write,ACK
2.178852800000000,202,0x22,0x40,Write,ACK
2.179799720000000,202,0x22,0x00,Write,ACK
2.180746640000000,202,0x22,0x00,Write,ACK
2.181679680000000,202,0x22,0x1E,Write,ACK
2.183861440000000,203,0x23,0x84,Read,NAK
2.185976360000000,204,0x23,0x84,Read,NAK
2.188070360000000,205,0x22,0x12,Write,ACK
2.189017280000000,205,0x22,0x00,Write,ACK
2.189964240000000,205,0x22,0x40,Write,ACK
2.190911200000000,205,0x22,0x00,Write,ACK
2.191858120000000,205,0x22,0x00,Write,ACK
2.192805040000000,205,0x22,0x1F,Write,ACK
2.194973160000000,206,0x23,0x84,Read,NAK
2.197088200000000,207,0x23,0x84,Read,NAK
2.199182360000000,208,0x22,0x12,Write,ACK
2.200129280000000,208,0x22,0x00,Write,ACK
2.201076240000000,208,0x22,0x40,Write,ACK
2.202023160000000,208,0x22,0x00,Write,ACK
2.202970120000000,208,0x22,0x00,Write,ACK
2.203917000000000,208,0x22,0x20,Write,ACK
2.206085080000000,209,0x23,0x84,Read,NAK
2.208200040000000,210,0x23,0x84,Read,NAK
2.210294240000000,211,0x22,0x12,Write,ACK
2.211241240000000,211,0x22,0x00,Write,ACK
2.212188160000000,211,0x22,0x40,Write,ACK
2.213135080000000,211,0x22,0x00,Write,ACK
2.214081960000000,211,0x22,0x00,Write,ACK
2.215028840000000,211,0x22,0x21,Write,ACK
2.217196680000000,212,0x23,0x84,Read,NAK
2.219311760000000,213,0x23,0x84,Read,NAK
2.221405800000000,214,0x22,0x12,Write,ACK
2.222352680000000,214,0x22,0x00,Write,ACK
2.223299600000000,214,0x22,0x40,Write,ACK
2.224246520000000,214,0x22,0x00,Write,ACK
2.225222080000000,214,0x22,0x00,Write,ACK
2.226169040000000,214,0x22,0x22,Write,ACK
2.228337120000000,215,0x23,0x84,Read,NAK
2.230452120000000,216,0x23,0x84,Read,NAK
2.232546280000000,217,0x22,0x12,Write,ACK
2.233493240000000,217,0x22,0x00,Write,ACK
2.234440200000000,217,0x22,0x40,Write,ACK
2.235387160000000,217,0x22,0x00,Write,ACK
2.236334080000000,217,0x22,0x00,Write,ACK
2.237281040000000,217,0x22,0x23,Write,ACK
2.239449160000000,218,0x23,0x84,Read,NAK
2.260910000000000,219,0x23,0x84,Read,NAK
2.263004040000000,220,0x22,0x14,Write,ACK
2.265126800000000,221,0x23,0x84,Read,NAK
2.267219440000000,222,0x23,0x84,Read,NAK
2.269322000000000,223,0x23,0x84,Read,NAK
2.271461400000000,224,0x22,0x24,Write,ACK
2.272408320000000,224,0x22,0x01,Write,ACK
2.274531000000000,225,0x23,0x80,Read,NAK
2.276623680000000,226,0x23,0x80,Read,ACK
2.277538240000000,226,0x23,0x35,Read,ACK
2.278452760000000,226,0x23,0x01,Read,ACK
2.279367240000000,226,0x23,0x04,Read,ACK
2.280281720000000,226,0x23,0xE3,Read,ACK
2.281196240000000,226,0x23,0x02,Read,ACK
2.282155880000000,226,0x23,0x04,Read,ACK
2.283070360000000,226,0x23,0x64,Read,ACK
2.283984920000000,226,0x23,0x5E,Read,ACK
2.284885480000000,226,0x23,0xCD,Read,ACK
2.285800000000000,226,0x23,0x45,Read,ACK
2.286714520000000,226,0x23,0x55,Read,ACK
2.287629040000000,226,0x23,0x10,Read,NAK
2.289891000000000,227,0x23,0x80,Read,NAK
2.291998920000000,228,0x22,0x14,Write,ACK
2.294166960000000,229,0x23,0x80,Read,NAK
2.296259640000000,230,0x23,0x80,Read,NAK
2.298368120000000,231,0x23,0x80,Read,NAK
2.300462200000000,232,0x22,0x14,Write,ACK
2.302584960000000,233,0x23,0x80,Read,NAK
2.304723040000000,234,0x23,0x80,Read,NAK
2.306831560000000,235,0x23,0x80,Read,NAK
2.308925760000000,236,0x22,0x14,Write,ACK
2.311062400000000,237,0x23,0x80,Read,NAK
2.313155160000000,238,0x23,0x80,Read,NAK
2.315308720000000,239,0x23,0x80,Read,NAK
2.317402760000000,240,0x22,0x14,Write,ACK
2.319525520000000,241,0x23,0x80,Read,NAK
2.321618280000000,242,0x23,0x80,Read,NAK
2.323726760000000,243,0x23,0x80,Read,NAK
2.325820960000000,244,0x22,0x14,Write,ACK
2.327989080000000,245,0x23,0x84,Read,NAK
2.330095720000000,246,0x23,0x84,Read,NAK
2.332198440000000,247,0x23,0x84,Read,NAK
2.334292680000000,248,0x22,0x24,Write,ACK
2.335239640000000,248,0x22,0x01,Write,ACK
2.337407680000000,249,0x23,0x80,Read,NAK
2.339500480000000,250,0x23,0x80,Read,ACK
2.340415000000000,250,0x23,0x21,Read,ACK
2.341329600000000,250,0x23,0x01,Read,ACK
2.342244120000000,250,0x23,0x04,Read,ACK
2.343158680000000,250,0x23,0xE3,Read,ACK
2.344073280000000,250,0x23,0x02,Read,ACK
2.344973920000000,250,0x23,0x04,Read,ACK
2.345888480000000,250,0x23,0x61,Read,ACK
2.346803000000000,250,0x23,0xE4,Read,ACK
2.347717560000000,250,0x23,0x1E,Read,ACK
2.348677200000000,250,0x23,0x53,Read,ACK
2.349591760000000,250,0x23,0x4B,Read,ACK
2.350506320000000,250,0x23,0x00,Read,NAK
2.353318480000000,251,0x23,0x80,Read,NAK
2.355412520000000,252,0x22,0x14,Write,ACK
2.357535280000000,253,0x23,0x80,Read,NAK
2.359673360000000,254,0x23,0x80,Read,NAK
2.361781840000000,255,0x23,0x80,Read,NAK
2.363875960000000,256,0x22,0x14,Write,ACK
2.365998720000000,257,0x23,0x80,Read,NAK
2.368091400000000,258,0x23,0x80,Read,NAK
2.370259000000000,259,0x23,0x80,Read,NAK
2.372353040000000,260,0x22,0x14,Write,ACK
2.374475760000000,261,0x23,0x80,Read,NAK
2.376568440000000,262,0x23,0x80,Read,NAK
2.378676880000000,263,0x23,0x80,Read,NAK
2.380771040000000,264,0x22,0x14,Write,ACK
2.382938960000000,265,0x23,0x80,Read,NAK
2.385031720000000,266,0x23,0x80,Read,NAK
2.387154120000000,267,0x23,0x80,Read,NAK
2.389248240000000,268,0x22,0x14,Write,ACK
2.391371000000000,269,0x23,0x80,Read,NAK
2.393509040000000,270,0x23,0x80,Read,NAK
2.395617520000000,271,0x23,0x80,Read,NAK
2.397711680000000,272,0x22,0x14,Write,ACK
2.399834440000000,273,0x23,0x80,Read,NAK
2.401927160000000,274,0x23,0x80,Read,NAK
2.404080920000000,275,0x23,0x80,Read,NAK
2.406175120000000,276,0x22,0x14,Write,ACK
2.408311800000000,277,0x23,0x80,Read,NAK
2.410404600000000,278,0x23,0x80,Read,NAK
2.412513120000000,279,0x23,0x80,Read,NAK
2.414652440000000,280,0x22,0x14,Write,ACK
2.416775200000000,281,0x23,0x84,Read,NAK
2.418867920000000,282,0x23,0x84,Read,NAK
2.420970600000000,283,0x23,0x84,Read,NAK
2.423064720000000,284,0x22,0x24,Write,ACK
2.424011640000000,284,0x22,0x01,Write,ACK
2.426179800000000,285,0x23,0x80,Read,NAK
2.428286600000000,286,0x23,0x80,Read,ACK
2.429187280000000,286,0x23,0x21,Read,ACK
2.430101880000000,286,0x23,0x01,Read,ACK
2.431016480000000,286,0x23,0x04,Read,ACK
2.431931080000000,286,0x23,0xE3,Read,ACK
2.432845640000000,286,0x23,0x02,Read,ACK
2.433760200000000,286,0x23,0x24,Read,ACK
2.434674720000000,286,0x23,0x6E,Read,ACK
2.435589280000000,286,0x23,0x20,Read,ACK
2.436549200000000,286,0x23,0x20,Read,ACK
2.437463720000000,286,0x23,0x20,Read,ACK
2.438378280000000,286,0x23,0x20,Read,ACK
2.439292880000000,286,0x23,0x00,Read,NAK
2.441498080000000,287,0x23,0x80,Read,NAK
2.443592240000000,288,0x22,0x14,Write,ACK
2.445715080000000,289,0x23,0x80,Read,NAK
2.447853000000000,290,0x23,0x80,Read,NAK
2.449961480000000,291,0x23,0x80,Read,NAK
2.452055680000000,292,0x22,0x14,Write,ACK
2.454178480000000,293,0x23,0x80,Read,NAK
2.456271240000000,294,0x23,0x80,Read,NAK
2.458438960000000,295,0x23,0x80,Read,NAK
2.460533200000000,296,0x22,0x14,Write,ACK
2.462656040000000,297,0x23,0x80,Read,NAK
2.464748800000000,298,0x23,0x80,Read,NAK
2.466857280000000,299,0x23,0x80,Read,NAK
2.468951440000000,300,0x22,0x14,Write,ACK
2.471119600000000,301,0x23,0x80,Read,NAK
2.473212400000000,302,0x23,0x80,Read,NAK
2.475363560000000,303,0x23,0x80,Read,NAK
2.477457680000000,304,0x22,0x14,Write,ACK
2.479580480000000,305,0x23,0x80,Read,NAK
2.481718440000000,306,0x23,0x80,Read,NAK
2.483837880000000,307,0x23,0x80,Read,NAK
2.485932000000000,308,0x22,0x14,Write,ACK
2.488054760000000,309,0x23,0x80,Read,NAK
2.490147520000000,310,0x23,0x80,Read,NAK
2.492301240000000,311,0x23,0x80,Read,NAK
2.494409240000000,312,0x22,0x14,Write,ACK
2.496532080000000,313,0x23,0x80,Read,NAK
2.498624880000000,314,0x23,0x80,Read,NAK
2.500733400000000,315,0x23,0x80,Read,NAK
2.502872880000000,316,0x22,0x14,Write,ACK
2.504995600000000,317,0x23,0x84,Read,NAK
2.507088400000000,318,0x23,0x84,Read,NAK
2.509191080000000,319,0x23,0x84,Read,NAK
2.511285280000000,320,0x22,0x24,Write,ACK
2.512232280000000,320,0x22,0x01,Write,ACK
2.514414120000000,321,0x23,0x80,Read,NAK
2.516506960000000,322,0x23,0x80,Read,ACK
2.517421520000000,322,0x23,0x21,Read,ACK
2.518322200000000,322,0x23,0x01,Read,ACK
2.519236800000000,322,0x23,0x04,Read,ACK
2.520151320000000,322,0x23,0xE3,Read,ACK
2.521065880000000,322,0x23,0x02,Read,ACK
2.521980480000000,322,0x23,0x04,Read,ACK
2.522895040000000,322,0x23,0x62,Read,ACK
2.523809560000000,322,0x23,0x5A,Read,ACK
2.524769400000000,322,0x23,0x69,Read,ACK
2.525683920000000,322,0x23,0x41,Read,ACK
2.526598480000000,322,0x23,0x44,Read,ACK
2.527513040000000,322,0x23,0x00,Read,NAK
2.529792920000000,323,0x23,0x80,Read,NAK
2.531887040000000,324,0x22,0x14,Write,ACK
2.534009840000000,325,0x23,0x80,Read,NAK
2.536148000000000,326,0x23,0x80,Read,NAK
2.538256480000000,327,0x23,0x80,Read,NAK
2.540350640000000,328,0x22,0x14,Write,ACK
2.542487320000000,329,0x23,0x80,Read,NAK
2.544580040000000,330,0x23,0x80,Read,NAK
2.546733680000000,331,0x23,0x80,Read,NAK
2.548827840000000,332,0x22,0x14,Write,ACK
2.550950640000000,333,0x23,0x80,Read,NAK
2.553043440000000,334,0x23,0x80,Read,NAK
2.555151960000000,335,0x23,0x80,Read,NAK
2.557246120000000,336,0x22,0x14,Write,ACK
2.559414200000000,337,0x23,0x80,Read,NAK
2.561520920000000,338,0x23,0x80,Read,NAK
2.563629400000000,339,0x23,0x80,Read,NAK
2.565723560000000,340,0x22,0x14,Write,ACK
2.567846440000000,341,0x23,0x80,Read,NAK
2.569984560000000,342,0x23,0x80,Read,NAK
2.572093120000000,343,0x23,0x80,Read,NAK
2.574187320000000,344,0x22,0x14,Write,ACK
2.576310040000000,345,0x23,0x80,Read,NAK
2.578402840000000,346,0x23,0x80,Read,NAK
2.580570360000000,347,0x23,0x80,Read,NAK
2.582664520000000,348,0x22,0x14,Write,ACK
2.584787280000000,349,0x23,0x80,Read,NAK
2.586880080000000,350,0x23,0x80,Read,NAK
2.588988400000000,351,0x23,0x80,Read,NAK
2.591127800000000,352,0x22,0x14,Write,ACK
2.593250560000000,353,0x23,0x84,Read,NAK
2.595343360000000,354,0x23,0x84,Read,NAK
2.597446080000000,355,0x23,0x84,Read,NAK
2.599540280000000,356,0x22,0x24,Write,ACK
2.600487240000000,356,0x22,0x01,Write,ACK
2.602669200000000,357,0x23,0x80,Read,NAK
2.604762000000000,358,0x23,0x80,Read,ACK
2.605676600000000,358,0x23,0x21,Read,ACK
2.606577280000000,358,0x23,0x01,Read,ACK
2.607491840000000,358,0x23,0x04,Read,ACK
2.608406400000000,358,0x23,0xE3,Read,ACK
2.609321000000000,358,0x23,0x02,Read,ACK
2.610235520000000,358,0x23,0x04,Read,ACK
2.611150040000000,358,0x23,0x67,Read,ACK
2.612064560000000,358,0x23,0x5E,Read,ACK
2.613024240000000,358,0x23,0xCD,Read,ACK
2.613938800000000,358,0x23,0x49,Read,ACK
2.614853400000000,358,0x23,0x32,Read,ACK
2.615767920000000,358,0x23,0x00,Read,NAK
2.621895040000000,359,0x23,0x80,Read,NAK
2.624034520000000,360,0x22,0x14,Write,ACK
2.626157280000000,361,0x23,0x80,Read,NAK
2.628249960000000,362,0x23,0x80,Read,NAK
2.630358400000000,363,0x23,0x80,Read,NAK
2.632452560000000,364,0x22,0x14,Write,ACK
2.634575360000000,365,0x23,0x80,Read,NAK
2.636727360000000,366,0x23,0x80,Read,NAK
2.638835880000000,367,0x23,0x80,Read,NAK
2.640930080000000,368,0x22,0x14,Write,ACK
2.643052880000000,369,0x23,0x80,Read,NAK
2.645145680000000,370,0x23,0x80,Read,NAK
2.647299320000000,371,0x23,0x80,Read,NAK
2.649393440000000,372,0x22,0x14,Write,ACK
2.651516200000000,373,0x23,0x80,Read,NAK
2.653608920000000,374,0x23,0x80,Read,NAK
2.655731320000000,375,0x23,0x80,Read,NAK
2.657870840000000,376,0x22,0x14,Write,ACK
2.659993640000000,377,0x23,0x80,Read,NAK
2.662086440000000,378,0x23,0x80,Read,NAK
2.664194920000000,379,0x23,0x80,Read,NAK
2.666289080000000,380,0x22,0x14,Write,ACK
2.668457240000000,381,0x23,0x80,Read,NAK
2.670550040000000,382,0x23,0x80,Read,NAK
2.672658560000000,383,0x23,0x80,Read,NAK
2.674766640000000,384,0x22,0x14,Write,ACK
2.676889400000000,385,0x23,0x84,Read,NAK
2.679027320000000,386,0x23,0x84,Read,NAK
2.681130000000000,387,0x23,0x84,Read,NAK
2.683224160000000,388,0x22,0x24,Write,ACK
2.684171160000000,388,0x22,0x01,Write,ACK
2.686293960000000,389,0x23,0x80,Read,NAK
2.688386680000000,390,0x23,0x80,Read,ACK
2.689301240000000,390,0x23,0x21,Read,ACK
2.690261120000000,390,0x23,0x01,Read,ACK
2.691175680000000,390,0x23,0x04,Read,ACK
2.692090240000000,390,0x23,0xE3,Read,ACK
2.693004800000000,390,0x23,0x02,Read,ACK
2.693919360000000,390,0x23,0x04,Read,ACK
2.694833960000000,390,0x23,0x64,Read,ACK
2.695734600000000,390,0x23,0xE4,Read,ACK
2.696649200000000,390,0x23,0x1E,Read,ACK
2.697563760000000,390,0x23,0x45,Read,ACK
2.698478320000000,390,0x23,0x55,Read,ACK
2.699392880000000,390,0x23,0x00,Read,NAK
2.706111640000000,391,0x23,0x80,Read,NAK
2.708205880000000,392,0x22,0x14,Write,ACK
2.710328680000000,393,0x23,0x80,Read,NAK
2.712466640000000,394,0x23,0x80,Read,NAK
2.714575160000000,395,0x23,0x80,Read,NAK
2.716669320000000,396,0x22,0x14,Write,ACK
2.718792120000000,397,0x23,0x80,Read,NAK
2.720898760000000,398,0x23,0x80,Read,NAK
2.723052520000000,399,0x23,0x80,Read,NAK
2.725175360000000,400,0x22,0x14,Write,ACK
2.727298120000000,401,0x23,0x80,Read,NAK
2.729390800000000,402,0x23,0x80,Read,NAK
2.731499240000000,403,0x23,0x80,Read,NAK
2.733593320000000,404,0x22,0x14,Write,ACK
2.735761360000000,405,0x23,0x80,Read,NAK
2.737868040000000,406,0x23,0x80,Read,NAK
2.739976520000000,407,0x23,0x80,Read,NAK
2.742070640000000,408,0x22,0x14,Write,ACK
2.744193360000000,409,0x23,0x80,Read,NAK
2.746331240000000,410,0x23,0x80,Read,NAK
2.748439760000000,411,0x23,0x80,Read,NAK
2.750533920000000,412,0x22,0x14,Write,ACK
2.752656680000000,413,0x23,0x80,Read,NAK
2.754749520000000,414,0x23,0x80,Read,NAK
2.756917240000000,415,0x23,0x80,Read,NAK
2.759011520000000,416,0x22,0x14,Write,ACK
2.761134440000000,417,0x23,0x84,Read,NAK
2.763227320000000,418,0x23,0x84,Read,NAK
2.765330080000000,419,0x23,0x84,Read,NAK
2.767469640000000,420,0x22,0x24,Write,ACK
2.768416640000000,420,0x22,0x01,Write,ACK
2.770539440000000,421,0x23,0x80,Read,NAK
2.772632240000000,422,0x23,0x80,Read,ACK
2.773546880000000,422,0x23,0x21,Read,ACK
2.774461480000000,422,0x23,0x01,Read,ACK
2.775376080000000,422,0x23,0x04,Read,ACK
2.776290680000000,422,0x23,0xE3,Read,ACK
2.777205320000000,422,0x23,0x02,Read,ACK
2.778165040000000,422,0x23,0x04,Read,ACK
2.779079680000000,422,0x23,0x61,Read,ACK
2.779994320000000,422,0x23,0x5A,Read,ACK
2.780895040000000,422,0x23,0x69,Read,ACK
2.781809640000000,422,0x23,0x53,Read,ACK
2.782724160000000,422,0x23,0x4B,Read,ACK
2.783638680000000,422,0x23,0x00,Read,NAK
2.789824920000000,423,0x23,0x80,Read,NAK
2.791919080000000,424,0x22,0x14,Write,ACK
2.794055760000000,425,0x23,0x80,Read,NAK
2.796148520000000,426,0x23,0x80,Read,NAK
2.798257000000000,427,0x23,0x80,Read,NAK
2.800396640000000,428,0x22,0x14,Write,ACK
2.802519560000000,429,0x23,0x80,Read,NAK
2.804612360000000,430,0x23,0x80,Read,NAK
2.806720920000000,431,0x23,0x80,Read,NAK
2.808815160000000,432,0x22,0x14,Write,ACK
2.810938000000000,433,0x23,0x80,Read,NAK
2.813089800000000,434,0x23,0x80,Read,NAK
2.815198320000000,435,0x23,0x80,Read,NAK
2.817292520000000,436,0x22,0x14,Write,ACK
2.819415240000000,437,0x23,0x80,Read,NAK
2.821508080000000,438,0x23,0x80,Read,NAK
2.823661880000000,439,0x23,0x80,Read,NAK
2.825756080000000,440,0x22,0x14,Write,ACK
2.827878840000000,441,0x23,0x80,Read,NAK
2.829971680000000,442,0x23,0x80,Read,NAK
2.832094000000000,443,0x23,0x80,Read,NAK
2.834233520000000,444,0x22,0x14,Write,ACK
2.836356480000000,445,0x23,0x80,Read,NAK
2.838449320000000,446,0x23,0x80,Read,NAK
2.840557760000000,447,0x23,0x80,Read,NAK
2.842651960000000,448,0x22,0x14,Write,ACK
2.844820000000000,449,0x23,0x80,Read,NAK
2.846912840000000,450,0x23,0x80,Read,NAK
2.849021400000000,451,0x23,0x80,Read,NAK
2.851129480000000,452,0x22,0x14,Write,ACK
2.853252360000000,453,0x23,0x84,Read,NAK
2.855390480000000,454,0x23,0x84,Read,NAK
2.857493160000000,455,0x23,0x84,Read,NAK
2.859587240000000,456,0x22,0x24,Write,ACK
2.860534200000000,456,0x22,0x01,Write,ACK
2.862656920000000,457,0x23,0x80,Read,NAK
2.864749680000000,458,0x23,0x80,Read,ACK
2.865664280000000,458,0x23,0x21,Read,ACK
2.866624240000000,458,0x23,0x01,Read,ACK
2.867538800000000,458,0x23,0x04,Read,ACK
2.868453400000000,458,0x23,0xE3,Read,ACK
2.869368000000000,458,0x23,0x02,Read,ACK
2.870282560000000,458,0x23,0x04,Read,ACK
2.871197160000000,458,0x23,0x62,Read,ACK
2.872097800000000,458,0x23,0x5E,Read,ACK
2.873012360000000,458,0x23,0xCD,Read,ACK
2.873926920000000,458,0x23,0x41,Read,ACK
2.874841520000000,458,0x23,0x44,Read,ACK
2.875756080000000,458,0x23,0x00,Read,NAK
2.881925720000000,459,0x23,0x80,Read,NAK
2.884019920000000,460,0x22,0x14,Write,ACK
2.886142640000000,461,0x23,0x80,Read,NAK
2.888294680000000,462,0x23,0x80,Read,NAK
2.890403160000000,463,0x23,0x80,Read,NAK
2.892497360000000,464,0x22,0x14,Write,ACK
2.894620160000000,465,0x23,0x80,Read,NAK
2.896713000000000,466,0x23,0x80,Read,NAK
2.898821520000000,467,0x23,0x80,Read,NAK
2.900961080000000,468,0x22,0x14,Write,ACK
2.903083920000000,469,0x23,0x80,Read,NAK
2.905176640000000,470,0x23,0x80,Read,NAK
2.907298960000000,471,0x23,0x80,Read,NAK
2.909393120000000,472,0x22,0x14,Write,ACK
2.911561040000000,473,0x23,0x80,Read,NAK
2.913653880000000,474,0x23,0x80,Read,NAK
2.915762360000000,475,0x23,0x80,Read,NAK
2.917856520000000,476,0x22,0x14,Write,ACK
2.919979280000000,477,0x23,0x80,Read,NAK
2.922117400000000,478,0x23,0x80,Read,NAK
2.924225880000000,479,0x23,0x80,Read,NAK
2.926333960000000,480,0x22,0x14,Write,ACK
2.928456760000000,481,0x23,0x80,Read,NAK
2.930549520000000,482,0x23,0x80,Read,NAK
2.932703400000000,483,0x23,0x80,Read,NAK
2.934797640000000,484,0x22,0x14,Write,ACK
2.936920440000000,485,0x23,0x84,Read,NAK
2.939013240000000,486,0x23,0x84,Read,NAK
2.941115960000000,487,0x23,0x84,Read,NAK
2.943210120000000,488,0x22,0x24,Write,ACK
2.944202200000000,488,0x22,0x01,Write,ACK
2.946338920000000,489,0x23,0x80,Read,NAK
2.948431760000000,490,0x23,0x80,Read,ACK
2.949346320000000,490,0x23,0x21,Read,ACK
2.950247000000000,490,0x23,0x01,Read,ACK
2.951161600000000,490,0x23,0x04,Read,ACK
2.952076160000000,490,0x23,0xE3,Read,ACK
2.952990760000000,490,0x23,0x02,Read,ACK
2.953905360000000,490,0x23,0x24,Read,ACK
2.954865280000000,490,0x23,0x6F,Read,ACK
2.955779840000000,490,0x23,0x20,Read,ACK
2.956694440000000,490,0x23,0x20,Read,ACK
2.957609000000000,490,0x23,0x20,Read,ACK
2.958523600000000,490,0x23,0x20,Read,ACK
2.959438160000000,490,0x23,0x00,Read,NAK
2.965549920000000,491,0x23,0x80,Read,NAK
2.967644120000000,492,0x22,0x14,Write,ACK
2.969766960000000,493,0x23,0x80,Read,NAK
2.971859680000000,494,0x23,0x80,Read,NAK
2.973968160000000,495,0x23,0x80,Read,NAK
2.976096360000000,496,0x22,0x14,Write,ACK
2.978264400000000,497,0x23,0x80,Read,NAK
2.980371160000000,498,0x23,0x80,Read,NAK
2.982491440000000,499,0x23,0x80,Read,NAK
2.984585600000000,500,0x22,0x14,Write,ACK
2.986708440000000,501,0x23,0x80,Read,NAK
2.988846560000000,502,0x23,0x80,Read,NAK
2.990954960000000,503,0x23,0x80,Read,NAK
2.993049160000000,504,0x22,0x14,Write,ACK
2.995171960000000,505,0x23,0x80,Read,NAK
2.997264680000000,506,0x23,0x80,Read,NAK
2.999432520000000,507,0x23,0x80,Read,NAK
3.001526640000000,508,0x22,0x14,Write,ACK
3.003649520000000,509,0x23,0x80,Read,NAK
3.005742360000000,510,0x23,0x80,Read,NAK
3.007850920000000,511,0x23,0x80,Read,NAK
3.009990360000000,512,0x22,0x14,Write,ACK
3.012113160000000,513,0x23,0x80,Read,NAK
3.014206000000000,514,0x23,0x80,Read,NAK
3.016314480000000,515,0x23,0x80,Read,NAK
3.018408680000000,516,0x22,0x14,Write,ACK
3.020590760000000,517,0x23,0x80,Read,NAK
3.022683520000000,518,0x23,0x80,Read,NAK
3.024792000000000,519,0x23,0x80,Read,NAK
3.026886200000000,520,0x22,0x14,Write,ACK
3.029008880000000,521,0x23,0x84,Read,NAK
3.031101640000000,522,0x23,0x84,Read,NAK
3.033249680000000,523,0x23,0x84,Read,NAK
3.035343920000000,524,0x22,0x24,Write,ACK
3.036290920000000,524,0x22,0x01,Write,ACK
3.038413680000000,525,0x23,0x80,Read,NAK
3.040520320000000,526,0x23,0x80,Read,ACK
3.041420960000000,526,0x23,0x21,Read,ACK
3.042335560000000,526,0x23,0x01,Read,ACK
3.043295240000000,526,0x23,0x04,Read,ACK
3.044209760000000,526,0x23,0xE3,Read,ACK
3.045124360000000,526,0x23,0x02,Read,ACK
3.046038960000000,526,0x23,0x04,Read,ACK
3.046953560000000,526,0x23,0x67,Read,ACK
3.047868120000000,526,0x23,0xE4,Read,ACK
3.048782720000000,526,0x23,0x1E,Read,ACK
3.049697320000000,526,0x23,0x49,Read,ACK
3.050611880000000,526,0x23,0x32,Read,ACK
3.051526440000000,526,0x23,0x00,Read,NAK
3.060958880000000,527,0x23,0x80,Read,NAK
3.063053040000000,528,0x22,0x14,Write,ACK
3.065221240000000,529,0x23,0x80,Read,NAK
3.067314080000000,530,0x23,0x80,Read,NAK
3.069422520000000,531,0x23,0x80,Read,NAK
3.071516680000000,532,0x22,0x14,Write,ACK
3.073653400000000,533,0x23,0x80,Read,NAK
3.075791280000000,534,0x23,0x80,Read,NAK
3.077899680000000,535,0x23,0x80,Read,NAK
3.079993800000000,536,0x22,0x14,Write,ACK
3.082116520000000,537,0x23,0x80,Read,NAK
3.084209240000000,538,0x23,0x80,Read,NAK
3.086317640000000,539,0x23,0x80,Read,NAK
3.088457080000000,540,0x22,0x14,Write,ACK
3.090593800000000,541,0x23,0x80,Read,NAK
3.092686520000000,542,0x23,0x80,Read,NAK
3.094794960000000,543,0x23,0x80,Read,NAK
3.096889120000000,544,0x22,0x14,Write,ACK
3.099057240000000,545,0x23,0x80,Read,NAK
3.101150040000000,546,0x23,0x80,Read,NAK
3.103258520000000,547,0x23,0x80,Read,NAK
3.105352760000000,548,0x22,0x14,Write,ACK
3.107475600000000,549,0x23,0x80,Read,NAK
3.109613600000000,550,0x23,0x80,Read,NAK
3.111736080000000,551,0x23,0x80,Read,NAK
3.113830240000000,552,0x22,0x14,Write,ACK
3.115953040000000,553,0x23,0x84,Read,NAK
3.118045920000000,554,0x23,0x84,Read,NAK
3.120194000000000,555,0x23,0x84,Read,NAK
3.122288160000000,556,0x22,0x24,Write,ACK
3.123235160000000,556,0x22,0x01,Write,ACK
3.125357960000000,557,0x23,0x80,Read,NAK
3.127450800000000,558,0x23,0x80,Read,ACK
3.128365360000000,558,0x23,0x21,Read,ACK
3.129279880000000,558,0x23,0x01,Read,ACK
3.130194480000000,558,0x23,0x04,Read,ACK
3.131154360000000,558,0x23,0xE3,Read,ACK
3.132068840000000,558,0x23,0x02,Read,ACK
3.132983360000000,558,0x23,0x04,Read,ACK
3.133897920000000,558,0x23,0x64,Read,ACK
3.134812440000000,558,0x23,0x5A,Read,ACK
3.135727000000000,558,0x23,0x69,Read,ACK
3.136627600000000,558,0x23,0x45,Read,ACK
3.137542160000000,558,0x23,0x55,Read,ACK
3.138456720000000,558,0x23,0x00,Read,NAK
3.150092560000000,559,0x23,0x80,Read,NAK
3.152186720000000,560,0x22,0x14,Write,ACK
3.154354800000000,561,0x23,0x80,Read,NAK
3.156447520000000,562,0x23,0x80,Read,NAK
3.158555960000000,563,0x23,0x80,Read,NAK
3.160650160000000,564,0x22,0x14,Write,ACK
3.162786840000000,565,0x23,0x80,Read,NAK
3.164924880000000,566,0x23,0x80,Read,NAK
3.167033320000000,567,0x23,0x80,Read,NAK
3.169127520000000,568,0x22,0x14,Write,ACK
3.171250280000000,569,0x23,0x80,Read,NAK
3.173343000000000,570,0x23,0x80,Read,NAK
3.175496520000000,571,0x23,0x80,Read,NAK
3.177590520000000,572,0x22,0x14,Write,ACK
3.179713200000000,573,0x23,0x80,Read,NAK
3.181819760000000,574,0x23,0x80,Read,NAK
3.183928120000000,575,0x23,0x80,Read,NAK
3.186067480000000,576,0x22,0x14,Write,ACK
3.188190240000000,577,0x23,0x80,Read,NAK
3.190283040000000,578,0x23,0x80,Read,NAK
3.192391480000000,579,0x23,0x80,Read,NAK
3.194485760000000,580,0x22,0x14,Write,ACK
3.196608640000000,581,0x23,0x80,Read,NAK
3.198746800000000,582,0x23,0x80,Read,NAK
3.200869200000000,583,0x23,0x80,Read,NAK
3.202963440000000,584,0x22,0x14,Write,ACK
3.205086280000000,585,0x23,0x84,Read,NAK
3.207179160000000,586,0x23,0x84,Read,NAK
3.209327000000000,587,0x23,0x84,Read,NAK
3.211421280000000,588,0x22,0x24,Write,ACK
3.212368280000000,588,0x22,0x01,Write,ACK
3.214491080000000,589,0x23,0x80,Read,NAK
3.216583920000000,590,0x23,0x80,Read,ACK
3.217498520000000,590,0x23,0x21,Read,ACK
3.218413160000000,590,0x23,0x01,Read,ACK
3.219373080000000,590,0x23,0x04,Read,ACK
3.220287680000000,590,0x23,0xE3,Read,ACK
3.221202240000000,590,0x23,0x02,Read,ACK
3.222116840000000,590,0x23,0x04,Read,ACK
3.223031400000000,590,0x23,0x61,Read,ACK
3.223945960000000,590,0x23,0x5E,Read,ACK
3.224846640000000,590,0x23,0xCD,Read,ACK
3.225789840000000,590,0x23,0x53,Read,ACK
3.226704400000000,590,0x23,0x4B,Read,ACK
3.227619000000000,590,0x23,0x00,Read,NAK
3.239239120000000,591,0x23,0x80,Read,NAK
3.241378360000000,592,0x22,0x14,Write,ACK
3.243501040000000,593,0x23,0x80,Read,NAK
3.245593760000000,594,0x23,0x80,Read,NAK
3.247702200000000,595,0x23,0x80,Read,NAK
3.249796400000000,596,0x22,0x14,Write,ACK
3.251978440000000,597,0x23,0x80,Read,NAK
3.254071280000000,598,0x23,0x80,Read,NAK
3.256179800000000,599,0x23,0x80,Read,NAK
3.258273960000000,600,0x22,0x14,Write,ACK
3.260396800000000,601,0x23,0x80,Read,NAK
3.262489600000000,602,0x23,0x80,Read,NAK
3.264643400000000,603,0x23,0x80,Read,NAK
3.266737560000000,604,0x22,0x14,Write,ACK
3.268860360000000,605,0x23,0x80,Read,NAK
3.270967120000000,606,0x23,0x80,Read,NAK
3.273075680000000,607,0x23,0x80,Read,NAK
3.275215080000000,608,0x22,0x14,Write,ACK
3.277337880000000,609,0x23,0x80,Read,NAK
3.279430760000000,610,0x23,0x80,Read,NAK
3.281539400000000,611,0x23,0x80,Read,NAK
3.283633720000000,612,0x22,0x14,Write,ACK
3.285801920000000,613,0x23,0x80,Read,NAK
3.287894720000000,614,0x23,0x80,Read,NAK
3.290017200000000,615,0x23,0x80,Read,NAK
3.292111440000000,616,0x22,0x14,Write,ACK
3.294234280000000,617,0x23,0x84,Read,NAK
3.296372400000000,618,0x23,0x84,Read,NAK
3.298475080000000,619,0x23,0x84,Read,NAK
3.300569240000000,620,0x22,0x24,Write,ACK
3.301516240000000,620,0x22,0x01,Write,ACK
3.303639040000000,621,0x23,0x80,Read,NAK
3.305731880000000,622,0x23,0x80,Read,ACK
3.306646520000000,622,0x23,0x21,Read,ACK
3.307606240000000,622,0x23,0x01,Read,ACK
3.308520840000000,622,0x23,0x04,Read,ACK
3.309435440000000,622,0x23,0xE3,Read,ACK
3.310350080000000,622,0x23,0x02,Read,ACK
3.311264680000000,622,0x23,0x04,Read,ACK
3.312179280000000,622,0x23,0x62,Read,ACK
3.313093800000000,622,0x23,0xE4,Read,ACK
3.313994480000000,622,0x23,0x1E,Read,ACK
3.314909080000000,622,0x23,0x41,Read,ACK
3.315823600000000,622,0x23,0x44,Read,ACK
3.316738160000000,622,0x23,0x00,Read,NAK
3.328892680000000,623,0x23,0x80,Read,NAK
3.331032200000000,624,0x22,0x14,Write,ACK
3.333168920000000,625,0x23,0x80,Read,NAK
3.335261600000000,626,0x23,0x80,Read,NAK
3.337370120000000,627,0x23,0x80,Read,NAK
3.339464240000000,628,0x22,0x14,Write,ACK
3.341632160000000,629,0x23,0x80,Read,NAK
3.343725000000000,630,0x23,0x80,Read,NAK
3.345833560000000,631,0x23,0x80,Read,NAK
3.347927840000000,632,0x22,0x14,Write,ACK
3.350050640000000,633,0x23,0x80,Read,NAK
3.352202720000000,634,0x23,0x80,Read,NAK
3.354311200000000,635,0x23,0x80,Read,NAK
3.356405400000000,636,0x22,0x14,Write,ACK
3.358528200000000,637,0x23,0x80,Read,NAK
3.360621040000000,638,0x23,0x80,Read,NAK
3.362774960000000,639,0x23,0x80,Read,NAK
3.364869120000000,640,0x22,0x14,Write,ACK
3.366991880000000,641,0x23,0x80,Read,NAK
3.369084600000000,642,0x23,0x80,Read,NAK
3.371206840000000,643,0x23,0x80,Read,NAK
3.373345960000000,644,0x22,0x14,Write,ACK
3.375468680000000,645,0x23,0x84,Read,NAK
3.377561360000000,646,0x23,0x84,Read,NAK
3.379663960000000,647,0x23,0x84,Read,NAK
3.381758120000000,648,0x22,0x24,Write,ACK
3.382705080000000,648,0x22,0x01,Write,ACK
3.384873120000000,649,0x23,0x80,Read,NAK
3.386965880000000,650,0x23,0x80,Read,ACK
3.387880480000000,650,0x23,0x21,Read,ACK
3.388795000000000,650,0x23,0x01,Read,ACK
3.389709600000000,650,0x23,0x04,Read,ACK
3.390624160000000,650,0x23,0xE3,Read,ACK
3.391538760000000,650,0x23,0x02,Read,ACK
3.392453320000000,650,0x23,0x04,Read,ACK
3.393367960000000,650,0x23,0x67,Read,ACK
3.394282480000000,650,0x23,0x5A,Read,ACK
3.395183160000000,650,0x23,0x69,Read,ACK
3.396143040000000,650,0x23,0x49,Read,ACK
3.397057600000000,650,0x23,0x32,Read,ACK
3.397972120000000,650,0x23,0x00,Read,NAK
3.406885800000000,651,0x23,0x80,Read,NAK
3.408979920000000,652,0x22,0x14,Write,ACK
3.411102640000000,653,0x23,0x80,Read,NAK
3.413195320000000,654,0x23,0x80,Read,NAK
3.415317720000000,655,0x23,0x80,Read,NAK
3.417457280000000,656,0x22,0x14,Write,ACK
3.419580080000000,657,0x23,0x80,Read,NAK
3.421672800000000,658,0x23,0x80,Read,NAK
3.423781160000000,659,0x23,0x80,Read,NAK
3.425875200000000,660,0x22,0x14,Write,ACK
3.427997880000000,661,0x23,0x80,Read,NAK
3.430135920000000,662,0x23,0x80,Read,NAK
3.432244320000000,663,0x23,0x80,Read,NAK
3.434352360000000,664,0x22,0x14,Write,ACK
3.436475160000000,665,0x23,0x80,Read,NAK
3.438567840000000,666,0x23,0x80,Read,NAK
3.440721400000000,667,0x23,0x80,Read,NAK
3.442815560000000,668,0x22,0x14,Write,ACK
3.444938320000000,669,0x23,0x80,Read,NAK
3.447031040000000,670,0x23,0x80,Read,NAK
3.449139360000000,671,0x23,0x80,Read,NAK
3.451278880000000,672,0x22,0x14,Write,ACK
3.453415520000000,673,0x23,0x80,Read,NAK
3.455508280000000,674,0x23,0x80,Read,NAK
3.457616640000000,675,0x23,0x80,Read,NAK
3.459710720000000,676,0x22,0x14,Write,ACK
3.461878840000000,677,0x23,0x84,Read,NAK
3.463971600000000,678,0x23,0x84,Read,NAK
3.466074240000000,679,0x23,0x84,Read,NAK
3.468168320000000,680,0x22,0x24,Write,ACK
3.469115280000000,680,0x22,0x01,Write,ACK
3.471238000000000,681,0x23,0x80,Read,NAK
3.473389880000000,682,0x23,0x80,Read,ACK
3.474290560000000,682,0x23,0x21,Read,ACK
3.475233960000000,682,0x23,0x01,Read,ACK
3.476148480000000,682,0x23,0x04,Read,ACK
3.477063000000000,682,0x23,0xE3,Read,ACK
3.477977520000000,682,0x23,0x02,Read,ACK
3.478892080000000,682,0x23,0x24,Read,ACK
3.479806600000000,682,0x23,0x60,Read,ACK
3.480721120000000,682,0x23,0x20,Read,ACK
3.481635640000000,682,0x23,0x52,Read,ACK
3.482550200000000,682,0x23,0x61,Read,ACK
3.483510120000000,682,0x23,0x64,Read,ACK
3.484424680000000,682,0x23,0x00,Read,NAK
3.490549680000000,683,0x23,0x80,Read,NAK
3.492643760000000,684,0x22,0x14,Write,ACK
3.494811800000000,685,0x23,0x80,Read,NAK
3.496904520000000,686,0x23,0x80,Read,NAK
3.499012920000000,687,0x23,0x80,Read,NAK
3.501106960000000,688,0x22,0x14,Write,ACK
3.503229720000000,689,0x23,0x80,Read,NAK
3.505322480000000,690,0x23,0x80,Read,NAK
3.507490040000000,691,0x23,0x80,Read,NAK
3.509584240000000,692,0x22,0x14,Write,ACK
3.511707040000000,693,0x23,0x80,Read,NAK
3.513799720000000,694,0x23,0x80,Read,NAK
3.515908240000000,695,0x23,0x80,Read,NAK
3.518047720000000,696,0x22,0x14,Write,ACK
3.520170600000000,697,0x23,0x80,Read,NAK
3.522263280000000,698,0x23,0x80,Read,NAK
3.524371760000000,699,0x23,0x80,Read,NAK
3.526479800000000,700,0x22,0x14,Write,ACK
3.528647880000000,701,0x23,0x80,Read,NAK
3.530740600000000,702,0x23,0x80,Read,NAK
3.532849080000000,703,0x23,0x80,Read,NAK
3.534943280000000,704,0x22,0x14,Write,ACK
3.537066080000000,705,0x23,0x80,Read,NAK
3.539204000000000,706,0x23,0x80,Read,NAK
3.541312520000000,707,0x23,0x80,Read,NAK
3.543406680000000,708,0x22,0x14,Write,ACK
3.545543440000000,709,0x23,0x80,Read,NAK
3.547636240000000,710,0x23,0x80,Read,NAK
3.549790120000000,711,0x23,0x80,Read,NAK
3.551884320000000,712,0x22,0x14,Write,ACK
3.554007040000000,713,0x23,0x84,Read,NAK
3.556099800000000,714,0x23,0x84,Read,NAK
